T6785780 000:002.648   SEGGER J-Link V7.96q Log File
T6785780 000:002.858   DLL Compiled: Jun 28 2024 12:39:24
T6785780 000:002.860   Logging started @ 2025-05-13 22:31
T6785780 000:002.862   Process: /root/.eclipse/com.renesas.platform_620912104/DebugComp/assp-riscv/e2-server-gdb
T6785780 000:002.869 - 2.865ms
T6785780 000:002.882 JLINK_GetDLLVersion()
T6785780 000:002.885 - 0.003ms returns 79617
T6785780 000:004.685 JLINK_OpenEx(...)
T6785780 000:009.062   Firmware: J-Link OB-RA4M2 compiled May 28 2024 15:43:06
T6785780 000:009.639   Firmware: J-Link OB-RA4M2 compiled May 28 2024 15:43:06
T6785780 000:023.155   Hardware: V1.00
T6785780 000:023.172   S/N: 1081781361
T6785780 000:023.174   OEM: SEGGER
T6785780 000:023.176   Feature(s): None
T6785780 000:023.524   Bootloader: 2021 May 14
T6785780 000:023.887   USB speed mode: Full speed (12 MBit/s)
T6785780 000:024.159   TELNET listener socket opened on port 19021
T6785780 000:024.214   WEBSRV WEBSRV_Init(): Starting webserver thread(s)
T6785780 000:024.261   WEBSRV Webserver running on local port 19080
T6785780 000:024.269   Looking for J-Link GUI Server exe at: RISCV/Segger/JLinkGUIServerExe
T6785780 000:024.272   Looking for J-Link GUI Server exe at: /opt/SEGGER/JLink/JLinkGUIServerExe
T6785780 000:327.641   Failed to connect to J-Link GUI Server.
T6785780 000:327.699 - 322.995ms returns "O.K."
T6785780 000:327.753 JLINK_ExecCommand("ProjectFile="/home/user0/e2_studio/workspace/freertos_port/freertos_port HardwareDebug.jlink"", ...). 
T6785780 000:355.996 - 28.243ms returns 0x00
T6785780 000:356.142 JLINK_ExecCommand("device=R9A02G021", ...). 
T6785780 000:357.461   Flash bank @ 0x00000000: SFL: Parsing sectorization info from ELF file
T6785780 000:357.487     FlashDevice.SectorInfo[0]: .SectorSize = 0x00000800, .SectorStartAddr = 0x00000000
T6785780 000:357.489   FlashBank @0x00000000: Sectorization info from SFL ELF file ignored because sectorization override from DLL / XML file is active.
T6785780 000:357.556   Flash bank @ 0x00000000: SFL: Parsing sectorization info from ELF file
T6785780 000:357.558     FlashDevice.SectorInfo[0]: .SectorSize = 0x00000004, .SectorStartAddr = 0x00000000
T6785780 000:357.560   FlashBank @0x01010008: Sectorization info from SFL ELF file ignored because sectorization override from DLL / XML file is active.
T6785780 000:357.580   Flash bank @ 0x00000000: SFL: Parsing sectorization info from ELF file
T6785780 000:357.582     FlashDevice.SectorInfo[0]: .SectorSize = 0x00000400, .SectorStartAddr = 0x00000000
T6785780 000:357.585   FlashBank @0x40100000: Sectorization info from SFL ELF file ignored because sectorization override from DLL / XML file is active.
T6785780 000:357.593   Device "R9A02G021" selected.
T6785780 000:357.671 - 1.526ms returns 0x00
T6785780 000:357.680 JLINK_ExecCommand("SetCPUConnectIDCODE = FFFFFFFFFFFFFFFFFFFFFFFFFFFFFFFF", ...). 
T6785780 000:357.683 - 0.000ms returns 0x00
T6785780 000:357.684 JLINK_TIF_GetAvailable(...)
T6785780 000:357.899 - 0.215ms
T6785780 000:357.901 JLINK_TIF_Select(JLINKARM_TIF_CJTAG)
T6785780 000:371.729 - 13.826ms returns 0x00
T6785780 000:371.748 JLINK_SetSpeed(4000)
T6785780 000:371.794 - 0.046ms
T6785780 000:371.797 JLINK_SetEndian(ARM_ENDIAN_LITTLE)
T6785780 000:371.799 - 0.001ms returns 0
T6785780 000:371.801 JLINK_SetInitRegsOnReset(OFF)
T6785780 000:371.802 - 0.001ms returns 1
T6785780 000:371.805 JLINK_SetResetType(JLINKARM_RESET_TYPE_NORMAL)
T6785780 000:371.807 - 0.003ms returns JLINKARM_RESET_TYPE_NORMAL
T6785780 000:371.810 JLINK_ExecCommand("DisableFlashBPs", ...). 
T6785780 000:371.813 - 0.001ms returns 0x00
T6785780 000:371.816 JLINK_ExecCommand("SetAllowFlashCache = 1", ...). 
T6785780 000:371.819 - 0.001ms returns 0x01
T6785780 000:371.822 JLINK_ExecCommand("SetRestartOnClose = 0", ...). 
T6785780 000:371.826 - 0.002ms returns 0x01
T6785780 000:371.828 JLINK_EnableSoftBPs(ON)
T6785780 000:371.830 - 0.002ms
T6785780 000:371.832 JLINK_Connect()
T6785780 000:371.988   ConfigTargetSettings() start
T6785780 000:371.991    J-Link Script File: Executing ConfigTargetSettings()
T6785780 000:372.012   ConfigTargetSettings() end - Took 20us
T6785780 000:388.087   TotalIRLen = 5, IRPrint = 0x05
T6785780 000:416.862   JTAG chain detection found 1 devices:
T6785780 000:416.889    #0 Id: 0x00000001, IRLen: 05, Unknown device
T6785780 000:416.898   Assuming RISC-V TAP with DTM setup
T6785780 000:417.073   Debug architecture:
T6785780 000:417.078     RISC-V debug: 0.13
T6785780 000:417.082     AddrBits: 14
T6785780 000:417.087     DataBits: 32
T6785780 000:417.091     IdleClks: 4
T6785780 000:417.096   Memory access:
T6785780 000:417.692     Via system bus: No
T6785780 000:418.114     Via ProgBuf: Yes (8 ProgBuf entries)
T6785780 000:418.119     Via abstract command (AAM): May be tried as last resort
T6785780 000:418.123   DataBuf: 4 entries
T6785780 000:419.006     autoexec[0] implemented: Yes
T6785780 000:920.531   Failed to temporarily halt core during identification
T6785780 000:920.551   Attaching to core failed. Trying again with connect under reset (ndmreset-bit)
T6785780 000:920.553   Memory access:
T6785780 000:923.894     Via system bus: No
T6785780 000:924.336     Via ProgBuf: Yes (8 ProgBuf entries)
T6785780 000:924.338     Via abstract command (AAM): May be tried as last resort
T6785780 000:924.339   DataBuf: 4 entries
T6785780 000:925.302     autoexec[0] implemented: Yes
T6785780 000:926.470   Detected: RV32 core
T6785780 000:926.705   -- Max. mem block: 0x0001D9B8
T6785780 001:016.099   HW instruction/data BPs: 4
T6785780 001:016.128   Support set/clr BPs while running: No
T6785780 001:027.557   HW data BPs trigger before execution of inst
T6785780 001:028.621   CSR access via abs. commands: Yes
T6785780 001:028.644   Compressed instruction support: Yes
T6785780 001:029.157   BG memory access support: No
T6785780 001:029.168   SetupTarget() start
T6785780 001:029.174    J-Link Script File: Executing SetupTarget()
T6785780 001:029.192   CPU_ReadMem(2 bytes @ 0x4001E3FE)
T6785780 001:032.495   CPU_WriteMem(2 bytes @ 0x4001E3FE)
T6785780 001:035.378   CPU_WriteMem(1 bytes @ 0x4001E40E)
T6785780 001:038.070   CPU_WriteMem(2 bytes @ 0x4001E3FE)
T6785780 001:040.824   SetupTarget() end - Took 11.6ms
T6785780 001:040.923   Initializing 12288 bytes work RAM @ 0x20004000
T6785780 001:040.938   RISC-V: Performing reset via <ndmreset>
T6785780 001:209.346   CPU_WriteMem(12288 bytes @ 0x20004000)
T6785780 002:823.676 - 2451.841ms returns 0x00
T6785780 002:823.722 JLINK_IsHalted()
T6785780 002:824.463 - 0.741ms returns TRUE
TFB3FD640 002:861.348 JLINK_BeginDownload(Flags = 0x00000000)
TFB3FD640 002:861.368 - 0.022ms
TFB3FD640 002:862.254 JLINK_IsHalted()
TFB3FD640 002:862.273 - 0.020ms returns TRUE
TFB3FD640 002:862.275 JLINK_WriteMem(0x00000000, 0x94 Bytes, ...)
TFB3FD640 002:862.277   Data:  97 11 00 00 93 81 01 80 17 71 00 20 13 01 41 FF ...
TFB3FD640 002:862.675   completely In flash
TFB3FD640 002:862.681 - 0.406ms returns 0x94
TFB3FD640 002:862.850 JLINK_IsHalted()
TFB3FD640 002:862.852 - 0.003ms returns TRUE
TFB3FD640 002:862.854 JLINK_WriteMem(0x000000C0, 0xCC Bytes, ...)
TFB3FD640 002:862.855   Data:  86 0D 00 00 86 0D 00 00 86 0D 00 00 02 0D 00 00 ...
TFB3FD640 002:862.858   completely In flash
TFB3FD640 002:862.860 - 0.005ms returns 0xCC
TFB3FD640 002:862.970 JLINK_IsHalted()
TFB3FD640 002:862.971 - 0.002ms returns TRUE
TFB3FD640 002:862.973 JLINK_WriteMem(0x000001C0, 0x4 Bytes, ...)
TFB3FD640 002:862.974   Data:  A6 0D 00 00
TFB3FD640 002:862.976   completely In flash
TFB3FD640 002:862.978 - 0.006ms returns 0x4
TFB3FD640 002:863.086 JLINK_IsHalted()
TFB3FD640 002:863.088 - 0.002ms returns TRUE
TFB3FD640 002:863.089 JLINK_WriteMem(0x00000400, 0x4 Bytes, ...)
TFB3FD640 002:863.090   Data:  FF FF FF FF
TFB3FD640 002:863.092   completely In flash
TFB3FD640 002:863.094 - 0.005ms returns 0x4
TFB3FD640 002:863.203 JLINK_IsHalted()
TFB3FD640 002:863.205 - 0.002ms returns TRUE
TFB3FD640 002:863.207 JLINK_WriteMem(0x00000404, 0x4 Bytes, ...)
TFB3FD640 002:863.208   Data:  FF CF FF FF
TFB3FD640 002:863.219   completely In flash
TFB3FD640 002:863.221 - 0.015ms returns 0x4
TFB3FD640 002:863.337 JLINK_IsHalted()
TFB3FD640 002:863.339 - 0.002ms returns TRUE
TFB3FD640 002:863.341 JLINK_WriteMem(0x00000408, 0x34 Bytes, ...)
TFB3FD640 002:863.343   Data:  FF FF FF FF FF FF FF FF FF FF FF FF FF FF FF FF ...
TFB3FD640 002:863.345   completely In flash
TFB3FD640 002:863.347 - 0.006ms returns 0x34
TFB3FD640 002:863.473 JLINK_IsHalted()
TFB3FD640 002:863.476 - 0.003ms returns TRUE
TFB3FD640 002:863.478 JLINK_WriteMem(0x00000800, 0x10 Bytes, ...)
TFB3FD640 002:863.479   Data:  FF FF FF FF FF FF FF FF FF FF FF FF FF FF FF FF
TFB3FD640 002:863.482   completely In flash
TFB3FD640 002:863.483 - 0.005ms returns 0x10
TFB3FD640 002:863.586 JLINK_IsHalted()
TFB3FD640 002:863.587 - 0.001ms returns TRUE
TFB3FD640 002:863.589 JLINK_WriteMem(0x00000810, 0xC Bytes, ...)
TFB3FD640 002:863.590   Data:  38 40 00 20 AA AA AA AA 04 40 00 20
TFB3FD640 002:863.592   completely In flash
TFB3FD640 002:863.594 - 0.005ms returns 0xC
TFB3FD640 002:863.759 JLINK_IsHalted()
TFB3FD640 002:863.760 - 0.002ms returns TRUE
TFB3FD640 002:863.762 JLINK_WriteMem(0x0000081C, 0xB74 Bytes, ...)
TFB3FD640 002:863.763   Data:  B7 02 10 00 32 05 13 05 35 33 12 05 0D 05 23 A0 ...
TFB3FD640 002:863.769   completely In flash
TFB3FD640 002:863.771 - 0.010ms returns 0xB74
TFB3FD640 002:863.880 JLINK_IsHalted()
TFB3FD640 002:863.882 - 0.001ms returns TRUE
TFB3FD640 002:863.883 JLINK_WriteMem(0x00001390, 0xB70 Bytes, ...)
TFB3FD640 002:863.884   Data:  83 25 49 00 85 05 23 22 B9 00 4C 5D 30 41 14 41 ...
TFB3FD640 002:863.887   completely In flash
TFB3FD640 002:863.888 - 0.005ms returns 0xB70
TFB3FD640 002:863.954 JLINK_IsHalted()
TFB3FD640 002:863.956 - 0.001ms returns TRUE
TFB3FD640 002:863.957 JLINK_WriteMem(0x00001F00, 0x7B2 Bytes, ...)
TFB3FD640 002:863.958   Data:  B7 46 00 20 03 A7 46 06 33 17 C7 28 23 A2 E6 06 ...
TFB3FD640 002:863.969   completely In flash
TFB3FD640 002:863.971 - 0.014ms returns 0x7B2
TFB3FD640 002:864.071 JLINK_IsHalted()
TFB3FD640 002:864.073 - 0.002ms returns TRUE
TFB3FD640 002:864.074 JLINK_WriteMem(0x000026B4, 0x58 Bytes, ...)
TFB3FD640 002:864.075   Data:  00 6C DC 02 00 12 7A 00 00 80 00 00 00 2D 31 01 ...
TFB3FD640 002:864.078   completely In flash
TFB3FD640 002:864.079 - 0.005ms returns 0x58
TFB3FD640 002:864.202 JLINK_IsHalted()
TFB3FD640 002:864.204 - 0.002ms returns TRUE
TFB3FD640 002:864.205 JLINK_WriteMem(0x01010008, 0x4 Bytes, ...)
TFB3FD640 002:864.206   Data:  FF FF FF FF
TFB3FD640 002:864.590   completely In flash
TFB3FD640 002:864.595 - 0.390ms returns 0x4
TFB3FD640 002:864.752 JLINK_IsHalted()
TFB3FD640 002:864.754 - 0.002ms returns TRUE
TFB3FD640 002:864.755 JLINK_WriteMem(0x01010010, 0x4 Bytes, ...)
TFB3FD640 002:864.756   Data:  FF FF FF FF
TFB3FD640 002:864.759   completely In flash
TFB3FD640 002:864.760 - 0.005ms returns 0x4
TFB3FD640 002:864.876 JLINK_IsHalted()
TFB3FD640 002:864.878 - 0.002ms returns TRUE
TFB3FD640 002:864.879 JLINK_WriteMem(0x01010018, 0x4 Bytes, ...)
TFB3FD640 002:864.880   Data:  FF FF FF FF
TFB3FD640 002:864.882   completely In flash
TFB3FD640 002:864.884 - 0.005ms returns 0x4
TFB3FD640 002:865.004 JLINK_IsHalted()
TFB3FD640 002:865.006 - 0.001ms returns TRUE
TFB3FD640 002:865.007 JLINK_WriteMem(0x01010020, 0x4 Bytes, ...)
TFB3FD640 002:865.008   Data:  FF FF FF FF
TFB3FD640 002:865.010   completely In flash
TFB3FD640 002:865.012 - 0.005ms returns 0x4
TFB3FD640 002:865.134 JLINK_IsHalted()
TFB3FD640 002:865.135 - 0.001ms returns TRUE
TFB3FD640 002:865.137 JLINK_WriteMem(0x01010028, 0x4 Bytes, ...)
TFB3FD640 002:865.138   Data:  FF FF FF FF
TFB3FD640 002:865.140   completely In flash
TFB3FD640 002:865.142 - 0.005ms returns 0x4
TFB3FD640 002:865.261 JLINK_IsHalted()
TFB3FD640 002:865.263 - 0.001ms returns TRUE
TFB3FD640 002:865.264 JLINK_WriteMem(0x01010030, 0x4 Bytes, ...)
TFB3FD640 002:865.265   Data:  FF FF FF FF
TFB3FD640 002:865.267   completely In flash
TFB3FD640 002:865.269 - 0.005ms returns 0x4
TFB3FD640 002:865.398 JLINK_ReadReg(X0)
TFB3FD640 002:865.599    -- --------------------------------------
TFB3FD640 002:865.610    -- Start of determining flash info (Bank @ 0x00000000)
TFB3FD640 002:865.619    -- End of determining flash info
TFB3FD640 002:865.621    -- Start of determining dirty areas in flash cache
TFB3FD640 002:865.624    -- Filling invalid ranges in sector buffer (flash cache) for sector @ 0x00000000 if necessary
TFB3FD640 002:865.626    -- Filling invalid ranges in sector buffer (flash cache) for sector @ 0x00000800 if necessary
TFB3FD640 002:865.628    -- Filling invalid ranges in sector buffer (flash cache) for sector @ 0x00001000 if necessary
TFB3FD640 002:865.630    -- Filling invalid ranges in sector buffer (flash cache) for sector @ 0x00001800 if necessary
TFB3FD640 002:865.632    -- Filling invalid ranges in sector buffer (flash cache) for sector @ 0x00002000 if necessary
TFB3FD640 002:865.654    -- End of determining dirty areas
TFB3FD640 002:865.656    -- Start of preparing flash programming
TFB3FD640 002:865.659    -- Preparing RAMCode
TFB3FD640 002:865.660    -- Calculating RAM usage
TFB3FD640 002:865.663    -- RAM usage = 8272 Bytes
TFB3FD640 002:865.664    -- Preserving CPU registers
TFB3FD640 002:865.676    -- Preparing memory
TFB3FD640 002:865.677    -- Preparing target
TFB3FD640 002:865.679    -- Preserving target RAM temporarily used for programming
TFB3FD640 003:851.046    -- Downloading RAMCode
TFB3FD640 004:772.957    -- Initializing RAMCode (InitType: 3 = Verify)
TFB3FD640 004:772.995    -- Executing SEGGER_FL_Prepare(3)
TFB3FD640 004:809.259    -- SEGGER_FL_Prepare() changed clock speed to 48000000Hz
TFB3FD640 004:809.293    -- End of preparing flash programming
TFB3FD640 004:809.302    -- CPU is running at 48000 kHz.
TFB3FD640 004:809.309    -- Start of comparing flash
TFB3FD640 004:809.316    -- CRC check was estimated as fastest method
TFB3FD640 004:809.324    -- Comparing range 0x0000 - 0x27FF (5 Sectors, 10 KB), using single-block CRC calculation
TFB3FD640 004:809.332    -- Recalculating RAMUsage for optimal performance during programming
TFB3FD640 004:836.217    -- CRC matches
TFB3FD640 004:836.254    -- Comparing range 0x0000 - 0x27FF (5 Sectors, 10 KB), using alternative single-block CRC calculation
TFB3FD640 004:836.263    -- Recalculating RAMUsage for optimal performance during programming
TFB3FD640 004:863.831    -- CRC matches
TFB3FD640 004:863.870    -- End of comparing flash
TFB3FD640 004:863.877    -- Start of erasing sectors
TFB3FD640 004:863.882    -- End of erasing sectors
TFB3FD640 004:863.888    -- Start of flash programming
TFB3FD640 004:863.893    -- End of flash programming
TFB3FD640 004:863.898    -- Start of verifying flash
TFB3FD640 004:863.904    -- End of verifying flash
TFB3FD640 004:863.909    -- Start of restoring
TFB3FD640 004:863.916    -- Executing SEGGER_FL_Restore()
TFB3FD640 004:915.628    -- Restoring target memory
TFB3FD640 006:011.157    -- Restoring CPU registers
TFB3FD640 006:011.228    -- End of restoring
TFB3FD640 006:011.238    -- Bank 0 @ 0x00000000: Skipped. Contents already match
TFB3FD640 006:011.245    -- Bank 0 @ 0x00000000: Skipped. Contents already match
TFB3FD640 006:011.255    -- --------------------------------------
TFB3FD640 006:011.261    -- Start of determining flash info (Bank @ 0x01010008)
TFB3FD640 006:011.268    -- End of determining flash info
TFB3FD640 006:011.273    -- Start of determining dirty areas in flash cache
TFB3FD640 006:011.280    -- Filling invalid ranges in sector buffer (flash cache) for sector @ 0x01010008 if necessary
TFB3FD640 006:011.289    -- Filling invalid ranges in sector buffer (flash cache) for sector @ 0x01010010 if necessary
TFB3FD640 006:011.295    -- Filling invalid ranges in sector buffer (flash cache) for sector @ 0x01010018 if necessary
TFB3FD640 006:011.302    -- Filling invalid ranges in sector buffer (flash cache) for sector @ 0x01010020 if necessary
TFB3FD640 006:011.324    -- Filling invalid ranges in sector buffer (flash cache) for sector @ 0x01010028 if necessary
TFB3FD640 006:011.346    -- Filling invalid ranges in sector buffer (flash cache) for sector @ 0x01010030 if necessary
TFB3FD640 006:011.352    -- End of determining dirty areas
TFB3FD640 006:011.357    -- Start of preparing flash programming
TFB3FD640 006:011.363    -- Preparing RAMCode
TFB3FD640 006:011.369    -- Calculating RAM usage
TFB3FD640 006:011.375    -- RAM usage = 5320 Bytes
TFB3FD640 006:011.380    -- Preserving CPU registers
TFB3FD640 006:011.402    -- Preparing memory
TFB3FD640 006:011.407    -- Preparing target
TFB3FD640 006:011.413    -- Preserving target RAM temporarily used for programming
TFB3FD640 006:644.109    -- Downloading RAMCode
TFB3FD640 007:595.682    -- Initializing RAMCode (InitType: 3 = Verify)
TFB3FD640 007:595.711    -- Executing SEGGER_FL_Prepare(3)
TFB3FD640 007:656.036    -- SEGGER_FL_Prepare() changed clock speed to 48000000Hz
TFB3FD640 007:656.065    -- End of preparing flash programming
TFB3FD640 007:656.072    -- CPU is running at 48000 kHz.
TFB3FD640 007:656.078    -- Start of comparing flash
TFB3FD640 007:656.083    -- CRC check was estimated as fastest method
TFB3FD640 007:656.090    -- Comparing range 0x1010008 - 0x101000B (1 Sector, 4 Bytes), using single-block CRC calculation
TFB3FD640 007:656.095    -- Recalculating RAMUsage for optimal performance during programming
TFB3FD640 007:656.101    -- RAM usage changed from 5320 to 8392 Bytes
TFB3FD640 007:802.020    -- CRC matches
TFB3FD640 007:802.055    -- Comparing range 0x1010010 - 0x1010013 (1 Sector, 4 Bytes), using single-block CRC calculation
TFB3FD640 007:802.063    -- Recalculating RAMUsage for optimal performance during programming
TFB3FD640 007:825.869    -- CRC matches
TFB3FD640 007:825.915    -- Comparing range 0x1010018 - 0x101001B (1 Sector, 4 Bytes), using single-block CRC calculation
TFB3FD640 007:825.929    -- Recalculating RAMUsage for optimal performance during programming
TFB3FD640 007:850.013    -- CRC matches
TFB3FD640 007:850.052    -- Comparing range 0x1010020 - 0x1010023 (1 Sector, 4 Bytes), using single-block CRC calculation
TFB3FD640 007:850.065    -- Recalculating RAMUsage for optimal performance during programming
TFB3FD640 007:873.133    -- CRC matches
TFB3FD640 007:873.179    -- Comparing range 0x1010028 - 0x101002B (1 Sector, 4 Bytes), using single-block CRC calculation
TFB3FD640 007:873.192    -- Recalculating RAMUsage for optimal performance during programming
TFB3FD640 007:896.727    -- CRC matches
TFB3FD640 007:896.770    -- Comparing range 0x1010030 - 0x1010033 (1 Sector, 4 Bytes), using single-block CRC calculation
TFB3FD640 007:896.784    -- Recalculating RAMUsage for optimal performance during programming
TFB3FD640 007:920.280    -- CRC matches
TFB3FD640 007:920.309    -- Comparing range 0x1010008 - 0x101000B (1 Sector, 4 Bytes), using alternative single-block CRC calculation
TFB3FD640 007:920.316    -- Recalculating RAMUsage for optimal performance during programming
TFB3FD640 007:943.983    -- CRC matches
TFB3FD640 007:944.038    -- Comparing range 0x1010010 - 0x1010013 (1 Sector, 4 Bytes), using alternative single-block CRC calculation
TFB3FD640 007:944.057    -- Recalculating RAMUsage for optimal performance during programming
TFB3FD640 007:967.129    -- CRC matches
TFB3FD640 007:967.182    -- Comparing range 0x1010018 - 0x101001B (1 Sector, 4 Bytes), using alternative single-block CRC calculation
TFB3FD640 007:967.200    -- Recalculating RAMUsage for optimal performance during programming
TFB3FD640 007:990.881    -- CRC matches
TFB3FD640 007:990.908    -- Comparing range 0x1010020 - 0x1010023 (1 Sector, 4 Bytes), using alternative single-block CRC calculation
TFB3FD640 007:990.914    -- Recalculating RAMUsage for optimal performance during programming
TFB3FD640 008:014.794    -- CRC matches
TFB3FD640 008:014.843    -- Comparing range 0x1010028 - 0x101002B (1 Sector, 4 Bytes), using alternative single-block CRC calculation
TFB3FD640 008:014.856    -- Recalculating RAMUsage for optimal performance during programming
TFB3FD640 008:039.200    -- CRC matches
TFB3FD640 008:039.239    -- Comparing range 0x1010030 - 0x1010033 (1 Sector, 4 Bytes), using alternative single-block CRC calculation
TFB3FD640 008:039.248    -- Recalculating RAMUsage for optimal performance during programming
TFB3FD640 008:063.101    -- CRC matches
TFB3FD640 008:063.127    -- End of comparing flash
TFB3FD640 008:063.131    -- Start of erasing sectors
TFB3FD640 008:063.133    -- End of erasing sectors
TFB3FD640 008:063.136    -- Start of flash programming
TFB3FD640 008:063.139    -- End of flash programming
TFB3FD640 008:063.141    -- Start of verifying flash
TFB3FD640 008:063.144    -- End of verifying flash
TFB3FD640 008:063.146    -- Start of restoring
TFB3FD640 008:063.150    -- Executing SEGGER_FL_Restore()
TFB3FD640 008:115.542    -- Restoring target memory
TFB3FD640 009:226.729    -- Restoring CPU registers
TFB3FD640 009:226.807    -- End of restoring
TFB3FD640 009:226.817    -- Bank 1 @ 0x01010008: Skipped. Contents already match
TFB3FD640 009:226.824    -- Bank 1 @ 0x01010008: Skipped. Contents already match
TFB3FD640 009:227.090 - 6361.692ms returns 0x00000000
TFB3FD640 009:227.105 JLINK_ReadReg(X1)
TFB3FD640 009:227.849 - 0.742ms returns 0x00000000
TFB3FD640 009:227.888 JLINK_ReadReg(X2)
TFB3FD640 009:227.893 - 0.006ms returns 0x00000000
TFB3FD640 009:227.901 JLINK_ReadReg(X3)
TFB3FD640 009:227.906 - 0.004ms returns 0x00000000
TFB3FD640 009:227.910 JLINK_ReadReg(X4)
TFB3FD640 009:227.914 - 0.004ms returns 0x00000000
TFB3FD640 009:227.921 JLINK_ReadReg(X5)
TFB3FD640 009:227.925 - 0.004ms returns 0x00000000
TFB3FD640 009:227.932 JLINK_ReadReg(X6)
TFB3FD640 009:227.936 - 0.004ms returns 0x00000000
TFB3FD640 009:227.942 JLINK_ReadReg(X7)
TFB3FD640 009:227.947 - 0.004ms returns 0x00000000
TFB3FD640 009:227.953 JLINK_ReadReg(X8)
TFB3FD640 009:227.957 - 0.003ms returns 0x00000000
TFB3FD640 009:227.964 JLINK_ReadReg(X9)
TFB3FD640 009:227.968 - 0.004ms returns 0x00000000
TFB3FD640 009:227.974 JLINK_ReadReg(X10)
TFB3FD640 009:227.978 - 0.004ms returns 0x00000000
TFB3FD640 009:227.984 JLINK_ReadReg(X11)
TFB3FD640 009:227.989 - 0.004ms returns 0x00000000
TFB3FD640 009:227.995 JLINK_ReadReg(X12)
TFB3FD640 009:227.999 - 0.005ms returns 0x00000000
TFB3FD640 009:228.005 JLINK_ReadReg(X13)
TFB3FD640 009:228.009 - 0.004ms returns 0x00000000
TFB3FD640 009:228.015 JLINK_ReadReg(X14)
TFB3FD640 009:228.020 - 0.004ms returns 0x00000000
TFB3FD640 009:228.026 JLINK_ReadReg(X15)
TFB3FD640 009:228.030 - 0.004ms returns 0x00000000
TFB3FD640 009:228.036 JLINK_ReadReg(X16)
TFB3FD640 009:228.040 - 0.004ms returns 0x00000000
TFB3FD640 009:228.047 JLINK_ReadReg(X17)
TFB3FD640 009:228.051 - 0.004ms returns 0x00000000
TFB3FD640 009:228.057 JLINK_ReadReg(X18)
TFB3FD640 009:228.062 - 0.004ms returns 0x00000000
TFB3FD640 009:228.068 JLINK_ReadReg(X19)
TFB3FD640 009:228.072 - 0.004ms returns 0x00000000
TFB3FD640 009:228.078 JLINK_ReadReg(X20)
TFB3FD640 009:228.082 - 0.004ms returns 0x00000000
TFB3FD640 009:228.088 JLINK_ReadReg(X21)
TFB3FD640 009:228.093 - 0.004ms returns 0x00000000
TFB3FD640 009:228.099 JLINK_ReadReg(X22)
TFB3FD640 009:228.103 - 0.003ms returns 0x00000000
TFB3FD640 009:228.109 JLINK_ReadReg(X23)
TFB3FD640 009:228.113 - 0.004ms returns 0x00000000
TFB3FD640 009:228.119 JLINK_ReadReg(X24)
TFB3FD640 009:228.124 - 0.004ms returns 0x00000000
TFB3FD640 009:228.130 JLINK_ReadReg(X25)
TFB3FD640 009:228.134 - 0.004ms returns 0x00000000
TFB3FD640 009:228.140 JLINK_ReadReg(X26)
TFB3FD640 009:228.144 - 0.004ms returns 0x00000000
TFB3FD640 009:228.150 JLINK_ReadReg(X27)
TFB3FD640 009:228.155 - 0.004ms returns 0x00000000
TFB3FD640 009:228.161 JLINK_ReadReg(X28)
TFB3FD640 009:228.165 - 0.004ms returns 0x00000000
TFB3FD640 009:228.171 JLINK_ReadReg(X29)
TFB3FD640 009:228.175 - 0.004ms returns 0x00000000
TFB3FD640 009:228.182 JLINK_ReadReg(X30)
TFB3FD640 009:228.186 - 0.004ms returns 0x00000000
TFB3FD640 009:228.192 JLINK_ReadReg(X31)
TFB3FD640 009:228.196 - 0.004ms returns 0x00000000
TFB3FD640 009:228.203 JLINK_ReadReg(PC)
TFB3FD640 009:228.229 - 0.027ms returns 0x00000000
TFB3FD640 009:228.938 JLINK_WriteReg(PC, 0x00000000)
TFB3FD640 009:228.957 - 0.020ms returns 0
TFB3FD640 009:231.635 JLINK_EndDownload()
TFB3FD640 009:231.674 - 0.038ms returns 0 (0x0)
TFB3FD640 009:232.085 JLINK_SetEndian(ARM_ENDIAN_LITTLE)
TFB3FD640 009:232.094 - 0.010ms returns 0
TFB3FD640 009:286.311 JLINK_ReadReg(X0)
TFB3FD640 009:286.335 - 0.026ms returns 0x00000000
TFB3FD640 009:286.338 JLINK_ReadReg(X1)
TFB3FD640 009:286.340 - 0.002ms returns 0x00000000
TFB3FD640 009:286.341 JLINK_ReadReg(X2)
TFB3FD640 009:286.343 - 0.002ms returns 0x00000000
TFB3FD640 009:286.344 JLINK_ReadReg(X3)
TFB3FD640 009:286.345 - 0.001ms returns 0x00000000
TFB3FD640 009:286.347 JLINK_ReadReg(X4)
TFB3FD640 009:286.348 - 0.001ms returns 0x00000000
TFB3FD640 009:286.349 JLINK_ReadReg(X5)
TFB3FD640 009:286.351 - 0.002ms returns 0x00000000
TFB3FD640 009:286.352 JLINK_ReadReg(X6)
TFB3FD640 009:286.353 - 0.001ms returns 0x00000000
TFB3FD640 009:286.355 JLINK_ReadReg(X7)
TFB3FD640 009:286.356 - 0.002ms returns 0x00000000
TFB3FD640 009:286.357 JLINK_ReadReg(X8)
TFB3FD640 009:286.359 - 0.001ms returns 0x00000000
TFB3FD640 009:286.360 JLINK_ReadReg(X9)
TFB3FD640 009:286.361 - 0.001ms returns 0x00000000
TFB3FD640 009:286.362 JLINK_ReadReg(X10)
TFB3FD640 009:286.364 - 0.002ms returns 0x00000000
TFB3FD640 009:286.365 JLINK_ReadReg(X11)
TFB3FD640 009:286.366 - 0.001ms returns 0x00000000
TFB3FD640 009:286.367 JLINK_ReadReg(X12)
TFB3FD640 009:286.369 - 0.002ms returns 0x00000000
TFB3FD640 009:286.370 JLINK_ReadReg(X13)
TFB3FD640 009:286.371 - 0.001ms returns 0x00000000
TFB3FD640 009:286.373 JLINK_ReadReg(X14)
TFB3FD640 009:286.374 - 0.001ms returns 0x00000000
TFB3FD640 009:286.375 JLINK_ReadReg(X15)
TFB3FD640 009:286.376 - 0.001ms returns 0x00000000
TFB3FD640 009:286.377 JLINK_ReadReg(X16)
TFB3FD640 009:286.379 - 0.001ms returns 0x00000000
TFB3FD640 009:286.380 JLINK_ReadReg(X17)
TFB3FD640 009:286.381 - 0.001ms returns 0x00000000
TFB3FD640 009:286.383 JLINK_ReadReg(X18)
TFB3FD640 009:286.384 - 0.002ms returns 0x00000000
TFB3FD640 009:286.385 JLINK_ReadReg(X19)
TFB3FD640 009:286.386 - 0.001ms returns 0x00000000
TFB3FD640 009:286.387 JLINK_ReadReg(X20)
TFB3FD640 009:286.389 - 0.001ms returns 0x00000000
TFB3FD640 009:286.390 JLINK_ReadReg(X21)
TFB3FD640 009:286.391 - 0.001ms returns 0x00000000
TFB3FD640 009:286.392 JLINK_ReadReg(X22)
TFB3FD640 009:286.393 - 0.001ms returns 0x00000000
TFB3FD640 009:286.395 JLINK_ReadReg(X23)
TFB3FD640 009:286.396 - 0.001ms returns 0x00000000
TFB3FD640 009:286.397 JLINK_ReadReg(X24)
TFB3FD640 009:286.398 - 0.001ms returns 0x00000000
TFB3FD640 009:286.400 JLINK_ReadReg(X25)
TFB3FD640 009:286.401 - 0.002ms returns 0x00000000
TFB3FD640 009:286.402 JLINK_ReadReg(X26)
TFB3FD640 009:286.403 - 0.001ms returns 0x00000000
TFB3FD640 009:286.405 JLINK_ReadReg(X27)
TFB3FD640 009:286.406 - 0.002ms returns 0x00000000
TFB3FD640 009:286.407 JLINK_ReadReg(X28)
TFB3FD640 009:286.408 - 0.001ms returns 0x00000000
TFB3FD640 009:286.409 JLINK_ReadReg(X29)
TFB3FD640 009:286.411 - 0.001ms returns 0x00000000
TFB3FD640 009:286.412 JLINK_ReadReg(X30)
TFB3FD640 009:286.413 - 0.001ms returns 0x00000000
TFB3FD640 009:286.414 JLINK_ReadReg(X31)
TFB3FD640 009:286.415 - 0.001ms returns 0x00000000
TFB3FD640 009:286.417 JLINK_ReadReg(PC)
TFB3FD640 009:286.418 - 0.002ms returns 0x00000000
TFABFC640 009:303.302 JLINK_GetNumBPUnits(Type = 0xFFFFFF00)
TFABFC640 009:303.324 - 0.022ms returns 0x04
TFABFC640 009:303.326 JLINK_GetNumWPUnits()
TFABFC640 009:303.327 - 0.002ms returns 4
TFABFC640 009:303.434 JLINK_GetNumBPUnits(Type = 0xFFFFFF00)
TFABFC640 009:303.445 - 0.011ms returns 0x04
TFABFC640 009:303.446 JLINK_GetNumWPUnits()
TFABFC640 009:303.448 - 0.002ms returns 4
TFABFC640 009:303.562 JLINK_GetNumBPUnits(Type = 0xFFFFFF00)
TFABFC640 009:303.566 - 0.003ms returns 0x04
TFABFC640 009:303.567 JLINK_GetNumWPUnits()
TFABFC640 009:303.568 - 0.001ms returns 4
TFABFC640 009:303.626 JLINK_GetNumBPUnits(Type = 0xFFFFFF00)
TFABFC640 009:303.645 - 0.019ms returns 0x04
TFABFC640 009:303.647 JLINK_GetNumWPUnits()
TFABFC640 009:303.648 - 0.001ms returns 4
TFABFC640 009:303.706 JLINK_GetNumBPUnits(Type = 0xFFFFFF00)
TFABFC640 009:303.709 - 0.003ms returns 0x04
TFABFC640 009:303.710 JLINK_GetNumWPUnits()
TFABFC640 009:303.711 - 0.001ms returns 4
TFABFC640 009:303.768 JLINK_GetNumBPUnits(Type = 0xFFFFFF00)
TFABFC640 009:303.771 - 0.002ms returns 0x04
TFABFC640 009:303.772 JLINK_GetNumWPUnits()
TFABFC640 009:303.773 - 0.001ms returns 4
TFABFC640 009:303.829 JLINK_GetNumBPUnits(Type = 0xFFFFFF00)
TFABFC640 009:303.832 - 0.003ms returns 0x04
TFABFC640 009:303.833 JLINK_GetNumWPUnits()
TFABFC640 009:303.834 - 0.001ms returns 4
TFABFC640 009:303.897 JLINK_GetNumBPUnits(Type = 0xFFFFFF00)
TFABFC640 009:303.899 - 0.003ms returns 0x04
TFABFC640 009:303.900 JLINK_GetNumWPUnits()
TFABFC640 009:303.901 - 0.001ms returns 4
TFB3FD640 011:691.125 JLINK_Step()
TFB3FD640 011:691.866    -- Read from flash cache (2 bytes @ 0x00000000)
TFB3FD640 011:691.878    -- Read from flash cache (2 bytes @ 0x00000002)
TFB3FD640 011:691.883   -- Simulated
TFB3FD640 011:691.885 - 0.761ms returns 0
TFB3FD640 011:692.077 JLINK_ReadReg(X0)
TFB3FD640 011:692.083 - 0.007ms returns 0x00000000
TFB3FD640 011:692.085 JLINK_ReadReg(X1)
TFB3FD640 011:692.087 - 0.002ms returns 0x00000000
TFB3FD640 011:692.089 JLINK_ReadReg(X2)
TFB3FD640 011:692.090 - 0.002ms returns 0x00000000
TFB3FD640 011:692.091 JLINK_ReadReg(X3)
TFB3FD640 011:692.093 - 0.001ms returns 0x00001000
TFB3FD640 011:692.094 JLINK_ReadReg(X4)
TFB3FD640 011:692.095 - 0.001ms returns 0x00000000
TFB3FD640 011:692.096 JLINK_ReadReg(X5)
TFB3FD640 011:692.098 - 0.001ms returns 0x00000000
TFB3FD640 011:692.099 JLINK_ReadReg(X6)
TFB3FD640 011:692.100 - 0.001ms returns 0x00000000
TFB3FD640 011:692.102 JLINK_ReadReg(X7)
TFB3FD640 011:692.103 - 0.002ms returns 0x00000000
TFB3FD640 011:692.104 JLINK_ReadReg(X8)
TFB3FD640 011:692.105 - 0.001ms returns 0x00000000
TFB3FD640 011:692.107 JLINK_ReadReg(X9)
TFB3FD640 011:692.108 - 0.001ms returns 0x00000000
TFB3FD640 011:692.109 JLINK_ReadReg(X10)
TFB3FD640 011:692.110 - 0.001ms returns 0x00000000
TFB3FD640 011:692.111 JLINK_ReadReg(X11)
TFB3FD640 011:692.113 - 0.001ms returns 0x00000000
TFB3FD640 011:692.114 JLINK_ReadReg(X12)
TFB3FD640 011:692.115 - 0.001ms returns 0x00000000
TFB3FD640 011:692.116 JLINK_ReadReg(X13)
TFB3FD640 011:692.118 - 0.001ms returns 0x00000000
TFB3FD640 011:692.119 JLINK_ReadReg(X14)
TFB3FD640 011:692.120 - 0.001ms returns 0x00000000
TFB3FD640 011:692.121 JLINK_ReadReg(X15)
TFB3FD640 011:692.122 - 0.001ms returns 0x00000000
TFB3FD640 011:692.124 JLINK_ReadReg(X16)
TFB3FD640 011:692.125 - 0.001ms returns 0x00000000
TFB3FD640 011:692.126 JLINK_ReadReg(X17)
TFB3FD640 011:692.127 - 0.001ms returns 0x00000000
TFB3FD640 011:692.129 JLINK_ReadReg(X18)
TFB3FD640 011:692.130 - 0.001ms returns 0x00000000
TFB3FD640 011:692.131 JLINK_ReadReg(X19)
TFB3FD640 011:692.132 - 0.001ms returns 0x00000000
TFB3FD640 011:692.133 JLINK_ReadReg(X20)
TFB3FD640 011:692.135 - 0.001ms returns 0x00000000
TFB3FD640 011:692.136 JLINK_ReadReg(X21)
TFB3FD640 011:692.137 - 0.001ms returns 0x00000000
TFB3FD640 011:692.138 JLINK_ReadReg(X22)
TFB3FD640 011:692.139 - 0.001ms returns 0x00000000
TFB3FD640 011:692.141 JLINK_ReadReg(X23)
TFB3FD640 011:692.142 - 0.001ms returns 0x00000000
TFB3FD640 011:692.143 JLINK_ReadReg(X24)
TFB3FD640 011:692.144 - 0.001ms returns 0x00000000
TFB3FD640 011:692.146 JLINK_ReadReg(X25)
TFB3FD640 011:692.147 - 0.002ms returns 0x00000000
TFB3FD640 011:692.148 JLINK_ReadReg(X26)
TFB3FD640 011:692.149 - 0.001ms returns 0x00000000
TFB3FD640 011:692.151 JLINK_ReadReg(X27)
TFB3FD640 011:692.152 - 0.002ms returns 0x00000000
TFB3FD640 011:692.153 JLINK_ReadReg(X28)
TFB3FD640 011:692.154 - 0.001ms returns 0x00000000
TFB3FD640 011:692.155 JLINK_ReadReg(X29)
TFB3FD640 011:692.157 - 0.001ms returns 0x00000000
TFB3FD640 011:692.158 JLINK_ReadReg(X30)
TFB3FD640 011:692.159 - 0.001ms returns 0x00000000
TFB3FD640 011:692.168 JLINK_ReadReg(X31)
TFB3FD640 011:692.169 - 0.001ms returns 0x00000000
TFB3FD640 011:692.171 JLINK_ReadReg(PC)
TFB3FD640 011:692.172 - 0.002ms returns 0x00000004
TFB3FD640 011:692.293 JLINK_Step()
TFB3FD640 011:692.297    -- Read from flash cache (2 bytes @ 0x00000004)
TFB3FD640 011:692.299    -- Read from flash cache (2 bytes @ 0x00000006)
TFB3FD640 011:692.302   -- Simulated
TFB3FD640 011:692.304 - 0.011ms returns 0
TFB3FD640 011:692.385 JLINK_ReadReg(X0)
TFB3FD640 011:692.387 - 0.003ms returns 0x00000000
TFB3FD640 011:692.389 JLINK_ReadReg(X1)
TFB3FD640 011:692.390 - 0.001ms returns 0x00000000
TFB3FD640 011:692.391 JLINK_ReadReg(X2)
TFB3FD640 011:692.393 - 0.001ms returns 0x00000000
TFB3FD640 011:692.394 JLINK_ReadReg(X3)
TFB3FD640 011:692.395 - 0.001ms returns 0x00000800
TFB3FD640 011:692.396 JLINK_ReadReg(X4)
TFB3FD640 011:692.398 - 0.002ms returns 0x00000000
TFB3FD640 011:692.399 JLINK_ReadReg(X5)
TFB3FD640 011:692.400 - 0.001ms returns 0x00000000
TFB3FD640 011:692.402 JLINK_ReadReg(X6)
TFB3FD640 011:692.403 - 0.001ms returns 0x00000000
TFB3FD640 011:692.404 JLINK_ReadReg(X7)
TFB3FD640 011:692.405 - 0.001ms returns 0x00000000
TFB3FD640 011:692.407 JLINK_ReadReg(X8)
TFB3FD640 011:692.408 - 0.002ms returns 0x00000000
TFB3FD640 011:692.409 JLINK_ReadReg(X9)
TFB3FD640 011:692.410 - 0.001ms returns 0x00000000
TFB3FD640 011:692.412 JLINK_ReadReg(X10)
TFB3FD640 011:692.413 - 0.001ms returns 0x00000000
TFB3FD640 011:692.414 JLINK_ReadReg(X11)
TFB3FD640 011:692.415 - 0.001ms returns 0x00000000
TFB3FD640 011:692.417 JLINK_ReadReg(X12)
TFB3FD640 011:692.418 - 0.001ms returns 0x00000000
TFB3FD640 011:692.419 JLINK_ReadReg(X13)
TFB3FD640 011:692.420 - 0.001ms returns 0x00000000
TFB3FD640 011:692.422 JLINK_ReadReg(X14)
TFB3FD640 011:692.423 - 0.001ms returns 0x00000000
TFB3FD640 011:692.424 JLINK_ReadReg(X15)
TFB3FD640 011:692.425 - 0.001ms returns 0x00000000
TFB3FD640 011:692.426 JLINK_ReadReg(X16)
TFB3FD640 011:692.428 - 0.002ms returns 0x00000000
TFB3FD640 011:692.429 JLINK_ReadReg(X17)
TFB3FD640 011:692.430 - 0.001ms returns 0x00000000
TFB3FD640 011:692.432 JLINK_ReadReg(X18)
TFB3FD640 011:692.433 - 0.002ms returns 0x00000000
TFB3FD640 011:692.434 JLINK_ReadReg(X19)
TFB3FD640 011:692.435 - 0.001ms returns 0x00000000
TFB3FD640 011:692.436 JLINK_ReadReg(X20)
TFB3FD640 011:692.446 - 0.010ms returns 0x00000000
TFB3FD640 011:692.448 JLINK_ReadReg(X21)
TFB3FD640 011:692.449 - 0.001ms returns 0x00000000
TFB3FD640 011:692.450 JLINK_ReadReg(X22)
TFB3FD640 011:692.451 - 0.001ms returns 0x00000000
TFB3FD640 011:692.452 JLINK_ReadReg(X23)
TFB3FD640 011:692.454 - 0.001ms returns 0x00000000
TFB3FD640 011:692.455 JLINK_ReadReg(X24)
TFB3FD640 011:692.456 - 0.001ms returns 0x00000000
TFB3FD640 011:692.457 JLINK_ReadReg(X25)
TFB3FD640 011:692.458 - 0.001ms returns 0x00000000
TFB3FD640 011:692.460 JLINK_ReadReg(X26)
TFB3FD640 011:692.461 - 0.001ms returns 0x00000000
TFB3FD640 011:692.462 JLINK_ReadReg(X27)
TFB3FD640 011:692.463 - 0.001ms returns 0x00000000
TFB3FD640 011:692.464 JLINK_ReadReg(X28)
TFB3FD640 011:692.466 - 0.001ms returns 0x00000000
TFB3FD640 011:692.467 JLINK_ReadReg(X29)
TFB3FD640 011:692.468 - 0.001ms returns 0x00000000
TFB3FD640 011:692.469 JLINK_ReadReg(X30)
TFB3FD640 011:692.470 - 0.001ms returns 0x00000000
TFB3FD640 011:692.472 JLINK_ReadReg(X31)
TFB3FD640 011:692.473 - 0.001ms returns 0x00000000
TFB3FD640 011:692.474 JLINK_ReadReg(PC)
TFB3FD640 011:692.475 - 0.001ms returns 0x00000008
TFB3FD640 011:692.566 JLINK_Step()
TFB3FD640 011:692.569    -- Read from flash cache (2 bytes @ 0x00000008)
TFB3FD640 011:692.571    -- Read from flash cache (2 bytes @ 0x0000000A)
TFB3FD640 011:692.573   -- Simulated
TFB3FD640 011:692.574 - 0.008ms returns 0
TFB3FD640 011:692.649 JLINK_ReadReg(X0)
TFB3FD640 011:692.651 - 0.003ms returns 0x00000000
TFB3FD640 011:692.653 JLINK_ReadReg(X1)
TFB3FD640 011:692.654 - 0.001ms returns 0x00000000
TFB3FD640 011:692.655 JLINK_ReadReg(X2)
TFB3FD640 011:692.657 - 0.002ms returns 0x20007008
TFB3FD640 011:692.662 JLINK_ReadReg(X3)
TFB3FD640 011:692.663 - 0.001ms returns 0x00000800
TFB3FD640 011:692.664 JLINK_ReadReg(X4)
TFB3FD640 011:692.665 - 0.001ms returns 0x00000000
TFB3FD640 011:692.667 JLINK_ReadReg(X5)
TFB3FD640 011:692.668 - 0.001ms returns 0x00000000
TFB3FD640 011:692.669 JLINK_ReadReg(X6)
TFB3FD640 011:692.670 - 0.001ms returns 0x00000000
TFB3FD640 011:692.671 JLINK_ReadReg(X7)
TFB3FD640 011:692.673 - 0.002ms returns 0x00000000
TFB3FD640 011:692.674 JLINK_ReadReg(X8)
TFB3FD640 011:692.675 - 0.001ms returns 0x00000000
TFB3FD640 011:692.676 JLINK_ReadReg(X9)
TFB3FD640 011:692.678 - 0.001ms returns 0x00000000
TFB3FD640 011:692.679 JLINK_ReadReg(X10)
TFB3FD640 011:692.680 - 0.001ms returns 0x00000000
TFB3FD640 011:692.681 JLINK_ReadReg(X11)
TFB3FD640 011:692.682 - 0.001ms returns 0x00000000
TFB3FD640 011:692.684 JLINK_ReadReg(X12)
TFB3FD640 011:692.685 - 0.001ms returns 0x00000000
TFB3FD640 011:692.686 JLINK_ReadReg(X13)
TFB3FD640 011:692.687 - 0.001ms returns 0x00000000
TFB3FD640 011:692.688 JLINK_ReadReg(X14)
TFB3FD640 011:692.690 - 0.001ms returns 0x00000000
TFB3FD640 011:692.691 JLINK_ReadReg(X15)
TFB3FD640 011:692.692 - 0.001ms returns 0x00000000
TFB3FD640 011:692.693 JLINK_ReadReg(X16)
TFB3FD640 011:692.694 - 0.001ms returns 0x00000000
TFB3FD640 011:692.696 JLINK_ReadReg(X17)
TFB3FD640 011:692.697 - 0.001ms returns 0x00000000
TFB3FD640 011:692.698 JLINK_ReadReg(X18)
TFB3FD640 011:692.699 - 0.001ms returns 0x00000000
TFB3FD640 011:692.700 JLINK_ReadReg(X19)
TFB3FD640 011:692.702 - 0.002ms returns 0x00000000
TFB3FD640 011:692.703 JLINK_ReadReg(X20)
TFB3FD640 011:692.704 - 0.001ms returns 0x00000000
TFB3FD640 011:692.705 JLINK_ReadReg(X21)
TFB3FD640 011:692.706 - 0.001ms returns 0x00000000
TFB3FD640 011:692.708 JLINK_ReadReg(X22)
TFB3FD640 011:692.709 - 0.001ms returns 0x00000000
TFB3FD640 011:692.710 JLINK_ReadReg(X23)
TFB3FD640 011:692.711 - 0.001ms returns 0x00000000
TFB3FD640 011:692.712 JLINK_ReadReg(X24)
TFB3FD640 011:692.714 - 0.001ms returns 0x00000000
TFB3FD640 011:692.715 JLINK_ReadReg(X25)
TFB3FD640 011:692.716 - 0.001ms returns 0x00000000
TFB3FD640 011:692.717 JLINK_ReadReg(X26)
TFB3FD640 011:692.718 - 0.001ms returns 0x00000000
TFB3FD640 011:692.720 JLINK_ReadReg(X27)
TFB3FD640 011:692.721 - 0.001ms returns 0x00000000
TFB3FD640 011:692.722 JLINK_ReadReg(X28)
TFB3FD640 011:692.723 - 0.001ms returns 0x00000000
TFB3FD640 011:692.724 JLINK_ReadReg(X29)
TFB3FD640 011:692.726 - 0.002ms returns 0x00000000
TFB3FD640 011:692.727 JLINK_ReadReg(X30)
TFB3FD640 011:692.728 - 0.001ms returns 0x00000000
TFB3FD640 011:692.729 JLINK_ReadReg(X31)
TFB3FD640 011:692.731 - 0.001ms returns 0x00000000
TFB3FD640 011:692.732 JLINK_ReadReg(PC)
TFB3FD640 011:692.733 - 0.001ms returns 0x0000000C
TFB3FD640 011:692.821 JLINK_Step()
TFB3FD640 011:692.824    -- Read from flash cache (2 bytes @ 0x0000000C)
TFB3FD640 011:692.825    -- Read from flash cache (2 bytes @ 0x0000000E)
TFB3FD640 011:692.827   -- Simulated
TFB3FD640 011:692.829 - 0.008ms returns 0
TFB3FD640 011:692.902 JLINK_ReadReg(X0)
TFB3FD640 011:692.904 - 0.002ms returns 0x00000000
TFB3FD640 011:692.906 JLINK_ReadReg(X1)
TFB3FD640 011:692.907 - 0.001ms returns 0x00000000
TFB3FD640 011:692.909 JLINK_ReadReg(X2)
TFB3FD640 011:692.910 - 0.001ms returns 0x20006FFC
TFB3FD640 011:692.911 JLINK_ReadReg(X3)
TFB3FD640 011:692.913 - 0.001ms returns 0x00000800
TFB3FD640 011:692.914 JLINK_ReadReg(X4)
TFB3FD640 011:692.915 - 0.001ms returns 0x00000000
TFB3FD640 011:692.916 JLINK_ReadReg(X5)
TFB3FD640 011:692.918 - 0.002ms returns 0x00000000
TFB3FD640 011:692.919 JLINK_ReadReg(X6)
TFB3FD640 011:692.920 - 0.001ms returns 0x00000000
TFB3FD640 011:692.921 JLINK_ReadReg(X7)
TFB3FD640 011:692.923 - 0.002ms returns 0x00000000
TFB3FD640 011:692.924 JLINK_ReadReg(X8)
TFB3FD640 011:692.925 - 0.001ms returns 0x00000000
TFB3FD640 011:692.926 JLINK_ReadReg(X9)
TFB3FD640 011:692.928 - 0.002ms returns 0x00000000
TFB3FD640 011:692.929 JLINK_ReadReg(X10)
TFB3FD640 011:692.930 - 0.001ms returns 0x00000000
TFB3FD640 011:692.934 JLINK_ReadReg(X11)
TFB3FD640 011:692.935 - 0.001ms returns 0x00000000
TFB3FD640 011:692.937 JLINK_ReadReg(X12)
TFB3FD640 011:692.938 - 0.001ms returns 0x00000000
TFB3FD640 011:692.939 JLINK_ReadReg(X13)
TFB3FD640 011:692.940 - 0.001ms returns 0x00000000
TFB3FD640 011:692.942 JLINK_ReadReg(X14)
TFB3FD640 011:692.943 - 0.001ms returns 0x00000000
TFB3FD640 011:692.944 JLINK_ReadReg(X15)
TFB3FD640 011:692.945 - 0.001ms returns 0x00000000
TFB3FD640 011:692.947 JLINK_ReadReg(X16)
TFB3FD640 011:692.948 - 0.002ms returns 0x00000000
TFB3FD640 011:692.949 JLINK_ReadReg(X17)
TFB3FD640 011:692.950 - 0.001ms returns 0x00000000
TFB3FD640 011:692.952 JLINK_ReadReg(X18)
TFB3FD640 011:692.953 - 0.001ms returns 0x00000000
TFB3FD640 011:692.954 JLINK_ReadReg(X19)
TFB3FD640 011:692.955 - 0.001ms returns 0x00000000
TFB3FD640 011:692.957 JLINK_ReadReg(X20)
TFB3FD640 011:692.958 - 0.001ms returns 0x00000000
TFB3FD640 011:692.959 JLINK_ReadReg(X21)
TFB3FD640 011:692.960 - 0.001ms returns 0x00000000
TFB3FD640 011:692.962 JLINK_ReadReg(X22)
TFB3FD640 011:692.963 - 0.002ms returns 0x00000000
TFB3FD640 011:692.964 JLINK_ReadReg(X23)
TFB3FD640 011:692.965 - 0.001ms returns 0x00000000
TFB3FD640 011:692.967 JLINK_ReadReg(X24)
TFB3FD640 011:692.968 - 0.002ms returns 0x00000000
TFB3FD640 011:692.969 JLINK_ReadReg(X25)
TFB3FD640 011:692.970 - 0.001ms returns 0x00000000
TFB3FD640 011:692.972 JLINK_ReadReg(X26)
TFB3FD640 011:692.973 - 0.002ms returns 0x00000000
TFB3FD640 011:692.974 JLINK_ReadReg(X27)
TFB3FD640 011:692.975 - 0.001ms returns 0x00000000
TFB3FD640 011:692.976 JLINK_ReadReg(X28)
TFB3FD640 011:692.978 - 0.002ms returns 0x00000000
TFB3FD640 011:692.979 JLINK_ReadReg(X29)
TFB3FD640 011:692.980 - 0.001ms returns 0x00000000
TFB3FD640 011:692.981 JLINK_ReadReg(X30)
TFB3FD640 011:692.983 - 0.002ms returns 0x00000000
TFB3FD640 011:692.984 JLINK_ReadReg(X31)
TFB3FD640 011:692.985 - 0.001ms returns 0x00000000
TFB3FD640 011:692.986 JLINK_ReadReg(PC)
TFB3FD640 011:692.988 - 0.001ms returns 0x00000010
TFB3FD640 011:693.073 JLINK_Step()
TFB3FD640 011:693.076    -- Read from flash cache (2 bytes @ 0x00000010)
TFB3FD640 011:693.078   -- Simulated
TFB3FD640 011:693.080 - 0.007ms returns 0
TFB3FD640 011:693.150 JLINK_ReadReg(X0)
TFB3FD640 011:693.153 - 0.003ms returns 0x00000000
TFB3FD640 011:693.154 JLINK_ReadReg(X1)
TFB3FD640 011:693.156 - 0.002ms returns 0x00000000
TFB3FD640 011:693.157 JLINK_ReadReg(X2)
TFB3FD640 011:693.158 - 0.001ms returns 0x20006FFC
TFB3FD640 011:693.160 JLINK_ReadReg(X3)
TFB3FD640 011:693.161 - 0.001ms returns 0x00000800
TFB3FD640 011:693.162 JLINK_ReadReg(X4)
TFB3FD640 011:693.164 - 0.002ms returns 0x00000000
TFB3FD640 011:693.165 JLINK_ReadReg(X5)
TFB3FD640 011:693.166 - 0.001ms returns 0x00000000
TFB3FD640 011:693.168 JLINK_ReadReg(X6)
TFB3FD640 011:693.169 - 0.001ms returns 0x00000000
TFB3FD640 011:693.170 JLINK_ReadReg(X7)
TFB3FD640 011:693.171 - 0.001ms returns 0x00000000
TFB3FD640 011:693.173 JLINK_ReadReg(X8)
TFB3FD640 011:693.174 - 0.001ms returns 0x20006FFC
TFB3FD640 011:693.175 JLINK_ReadReg(X9)
TFB3FD640 011:693.177 - 0.001ms returns 0x00000000
TFB3FD640 011:693.178 JLINK_ReadReg(X10)
TFB3FD640 011:693.179 - 0.001ms returns 0x00000000
TFB3FD640 011:693.180 JLINK_ReadReg(X11)
TFB3FD640 011:693.182 - 0.001ms returns 0x00000000
TFB3FD640 011:693.183 JLINK_ReadReg(X12)
TFB3FD640 011:693.184 - 0.001ms returns 0x00000000
TFB3FD640 011:693.185 JLINK_ReadReg(X13)
TFB3FD640 011:693.187 - 0.001ms returns 0x00000000
TFB3FD640 011:693.188 JLINK_ReadReg(X14)
TFB3FD640 011:693.189 - 0.001ms returns 0x00000000
TFB3FD640 011:693.190 JLINK_ReadReg(X15)
TFB3FD640 011:693.192 - 0.001ms returns 0x00000000
TFB3FD640 011:693.193 JLINK_ReadReg(X16)
TFB3FD640 011:693.194 - 0.001ms returns 0x00000000
TFB3FD640 011:693.195 JLINK_ReadReg(X17)
TFB3FD640 011:693.197 - 0.001ms returns 0x00000000
TFB3FD640 011:693.198 JLINK_ReadReg(X18)
TFB3FD640 011:693.199 - 0.001ms returns 0x00000000
TFB3FD640 011:693.200 JLINK_ReadReg(X19)
TFB3FD640 011:693.202 - 0.001ms returns 0x00000000
TFB3FD640 011:693.205 JLINK_ReadReg(X20)
TFB3FD640 011:693.207 - 0.001ms returns 0x00000000
TFB3FD640 011:693.208 JLINK_ReadReg(X21)
TFB3FD640 011:693.209 - 0.001ms returns 0x00000000
TFB3FD640 011:693.210 JLINK_ReadReg(X22)
TFB3FD640 011:693.212 - 0.002ms returns 0x00000000
TFB3FD640 011:693.213 JLINK_ReadReg(X23)
TFB3FD640 011:693.214 - 0.001ms returns 0x00000000
TFB3FD640 011:693.215 JLINK_ReadReg(X24)
TFB3FD640 011:693.217 - 0.002ms returns 0x00000000
TFB3FD640 011:693.218 JLINK_ReadReg(X25)
TFB3FD640 011:693.219 - 0.001ms returns 0x00000000
TFB3FD640 011:693.220 JLINK_ReadReg(X26)
TFB3FD640 011:693.222 - 0.002ms returns 0x00000000
TFB3FD640 011:693.223 JLINK_ReadReg(X27)
TFB3FD640 011:693.224 - 0.001ms returns 0x00000000
TFB3FD640 011:693.225 JLINK_ReadReg(X28)
TFB3FD640 011:693.227 - 0.002ms returns 0x00000000
TFB3FD640 011:693.228 JLINK_ReadReg(X29)
TFB3FD640 011:693.229 - 0.001ms returns 0x00000000
TFB3FD640 011:693.230 JLINK_ReadReg(X30)
TFB3FD640 011:693.232 - 0.002ms returns 0x00000000
TFB3FD640 011:693.233 JLINK_ReadReg(X31)
TFB3FD640 011:693.234 - 0.001ms returns 0x00000000
TFB3FD640 011:693.235 JLINK_ReadReg(PC)
TFB3FD640 011:693.237 - 0.002ms returns 0x00000012
TFB3FD640 011:693.327 JLINK_Step()
TFB3FD640 011:693.330    -- Read from flash cache (2 bytes @ 0x00000012)
TFB3FD640 011:693.332    -- Read from flash cache (2 bytes @ 0x00000014)
TFB3FD640 011:693.334   -- Simulated
TFB3FD640 011:693.336 - 0.009ms returns 0
TFB3FD640 011:693.412 JLINK_ReadReg(X0)
TFB3FD640 011:693.415 - 0.003ms returns 0x00000000
TFB3FD640 011:693.416 JLINK_ReadReg(X1)
TFB3FD640 011:693.418 - 0.002ms returns 0x00000016
TFB3FD640 011:693.419 JLINK_ReadReg(X2)
TFB3FD640 011:693.420 - 0.001ms returns 0x20006FFC
TFB3FD640 011:693.422 JLINK_ReadReg(X3)
TFB3FD640 011:693.423 - 0.001ms returns 0x00000800
TFB3FD640 011:693.424 JLINK_ReadReg(X4)
TFB3FD640 011:693.425 - 0.001ms returns 0x00000000
TFB3FD640 011:693.427 JLINK_ReadReg(X5)
TFB3FD640 011:693.428 - 0.001ms returns 0x00000000
TFB3FD640 011:693.429 JLINK_ReadReg(X6)
TFB3FD640 011:693.430 - 0.001ms returns 0x00000000
TFB3FD640 011:693.432 JLINK_ReadReg(X7)
TFB3FD640 011:693.433 - 0.001ms returns 0x00000000
TFB3FD640 011:693.434 JLINK_ReadReg(X8)
TFB3FD640 011:693.436 - 0.001ms returns 0x20006FFC
TFB3FD640 011:693.440 JLINK_ReadReg(X9)
TFB3FD640 011:693.444 - 0.004ms returns 0x00000000
TFB3FD640 011:693.446 JLINK_ReadReg(X10)
TFB3FD640 011:693.447 - 0.002ms returns 0x00000000
TFB3FD640 011:693.448 JLINK_ReadReg(X11)
TFB3FD640 011:693.449 - 0.001ms returns 0x00000000
TFB3FD640 011:693.450 JLINK_ReadReg(X12)
TFB3FD640 011:693.451 - 0.001ms returns 0x00000000
TFB3FD640 011:693.453 JLINK_ReadReg(X13)
TFB3FD640 011:693.454 - 0.001ms returns 0x00000000
TFB3FD640 011:693.455 JLINK_ReadReg(X14)
TFB3FD640 011:693.456 - 0.001ms returns 0x00000000
TFB3FD640 011:693.457 JLINK_ReadReg(X15)
TFB3FD640 011:693.459 - 0.001ms returns 0x00000000
TFB3FD640 011:693.460 JLINK_ReadReg(X16)
TFB3FD640 011:693.461 - 0.001ms returns 0x00000000
TFB3FD640 011:693.462 JLINK_ReadReg(X17)
TFB3FD640 011:693.464 - 0.001ms returns 0x00000000
TFB3FD640 011:693.465 JLINK_ReadReg(X18)
TFB3FD640 011:693.466 - 0.001ms returns 0x00000000
TFB3FD640 011:693.467 JLINK_ReadReg(X19)
TFB3FD640 011:693.468 - 0.001ms returns 0x00000000
TFB3FD640 011:693.470 JLINK_ReadReg(X20)
TFB3FD640 011:693.471 - 0.001ms returns 0x00000000
TFB3FD640 011:693.472 JLINK_ReadReg(X21)
TFB3FD640 011:693.473 - 0.001ms returns 0x00000000
TFB3FD640 011:693.475 JLINK_ReadReg(X22)
TFB3FD640 011:693.476 - 0.002ms returns 0x00000000
TFB3FD640 011:693.477 JLINK_ReadReg(X23)
TFB3FD640 011:693.478 - 0.001ms returns 0x00000000
TFB3FD640 011:693.480 JLINK_ReadReg(X24)
TFB3FD640 011:693.481 - 0.002ms returns 0x00000000
TFB3FD640 011:693.482 JLINK_ReadReg(X25)
TFB3FD640 011:693.483 - 0.001ms returns 0x00000000
TFB3FD640 011:693.484 JLINK_ReadReg(X26)
TFB3FD640 011:693.486 - 0.001ms returns 0x00000000
TFB3FD640 011:693.487 JLINK_ReadReg(X27)
TFB3FD640 011:693.491 - 0.004ms returns 0x00000000
TFB3FD640 011:693.492 JLINK_ReadReg(X28)
TFB3FD640 011:693.494 - 0.002ms returns 0x00000000
TFB3FD640 011:693.495 JLINK_ReadReg(X29)
TFB3FD640 011:693.496 - 0.001ms returns 0x00000000
TFB3FD640 011:693.497 JLINK_ReadReg(X30)
TFB3FD640 011:693.499 - 0.001ms returns 0x00000000
TFB3FD640 011:693.500 JLINK_ReadReg(X31)
TFB3FD640 011:693.501 - 0.001ms returns 0x00000000
TFB3FD640 011:693.502 JLINK_ReadReg(PC)
TFB3FD640 011:693.503 - 0.001ms returns 0x00000DA8
TFB3FD640 011:926.905 JLINK_Step()
TFB3FD640 011:926.980    -- Read from flash cache (2 bytes @ 0x00000DA8)
TFB3FD640 011:926.984    -- Read from flash cache (2 bytes @ 0x00000DAA)
TFB3FD640 011:926.995   -- Simulated
TFB3FD640 011:926.997 - 0.092ms returns 0
TFB3FD640 011:927.191 JLINK_ReadReg(X0)
